Time[s], Channel 0, Channel 1, Channel 2, Channel 3, Channel 4, Channel 5, Channel 6, Channel 7
0.000000000000000, 1, 1, 1, 1, 1, 1, 1, 1
5.413737791666667, 1, 0, 1, 1, 1, 1, 1, 1
5.413742833333334, 1, 0, 0, 1, 1, 1, 1, 1
5.413747666666667, 1, 1, 0, 1, 1, 1, 1, 1
5.413752208333333, 1, 1, 1, 1, 1, 1, 1, 1
5.413757166666667, 1, 1, 0, 1, 1, 1, 1, 1
5.413757458333333, 1, 0, 0, 1, 1, 1, 1, 1
5.413762333333334, 1, 0, 1, 1, 1, 1, 1, 1
5.413767166666667, 1, 0, 0, 1, 1, 1, 1, 1
5.413767583333334, 1, 1, 0, 1, 1, 1, 1, 1
5.413772250000000, 1, 1, 1, 1, 1, 1, 1, 1
5.413777166666667, 1, 1, 0, 1, 1, 1, 1, 1
5.413782250000001, 1, 1, 1, 1, 1, 1, 1, 1
5.413787166666667, 1, 1, 0, 1, 1, 1, 1, 1
5.413787500000001, 1, 0, 0, 1, 1, 1, 1, 1
5.413792333333333, 1, 0, 1, 1, 1, 1, 1, 1
5.413797166666667, 1, 0, 0, 1, 1, 1, 1, 1
5.413797583333333, 1, 1, 0, 1, 1, 1, 1, 1
5.413802291666667, 1, 1, 1, 1, 1, 1, 1, 1
5.413807166666667, 1, 1, 0, 1, 1, 1, 1, 1
5.413807500000001, 1, 0, 0, 1, 1, 1, 1, 1
5.413812333333333, 1, 0, 1, 1, 1, 1, 1, 1
5.413817166666667, 1, 0, 0, 1, 1, 1, 1, 1
5.413822333333334, 1, 0, 1, 1, 1, 1, 1, 1
5.413827208333334, 1, 0, 0, 1, 1, 1, 1, 1
5.413827625000001, 1, 1, 0, 1, 1, 1, 1, 1
5.413830083333334, 1, 0, 0, 1, 1, 1, 1, 1
5.413832333333334, 1, 0, 1, 1, 1, 1, 1, 1
5.413837208333334, 1, 0, 0, 1, 1, 1, 1, 1
5.413838916666667, 1, 1, 0, 1, 1, 1, 1, 1
5.413842666666667, 1, 0, 0, 1, 1, 1, 1, 1
5.413847541666667, 1, 0, 1, 1, 1, 1, 1, 1
5.413852416666667, 1, 0, 0, 1, 1, 1, 1, 1
5.413857583333334, 1, 0, 1, 1, 1, 1, 1, 1
5.413862416666667, 1, 0, 0, 1, 1, 1, 1, 1
5.413862833333334, 1, 1, 0, 1, 1, 1, 1, 1
5.413867500000000, 1, 1, 1, 1, 1, 1, 1, 1
5.413872416666667, 1, 1, 0, 1, 1, 1, 1, 1
5.413872708333334, 1, 0, 0, 1, 1, 1, 1, 1
5.413877583333334, 1, 0, 1, 1, 1, 1, 1, 1
5.413882416666667, 1, 0, 0, 1, 1, 1, 1, 1
5.413887583333334, 1, 0, 1, 1, 1, 1, 1, 1
5.413892416666667, 1, 0, 0, 1, 1, 1, 1, 1
5.413892833333334, 1, 1, 0, 1, 1, 1, 1, 1
5.413897541666667, 1, 1, 1, 1, 1, 1, 1, 1
5.413902416666667, 1, 1, 0, 1, 1, 1, 1, 1
5.413902750000000, 1, 0, 0, 1, 1, 1, 1, 1
5.413907583333334, 1, 0, 1, 1, 1, 1, 1, 1
5.413912416666667, 1, 0, 0, 1, 1, 1, 1, 1
5.413917625000001, 1, 0, 1, 1, 1, 1, 1, 1
5.413922458333333, 1, 0, 0, 1, 1, 1, 1, 1
5.413922875000000, 1, 1, 0, 1, 1, 1, 1, 1
5.413924750000001, 1, 0, 0, 1, 1, 1, 1, 1
5.413927583333334, 1, 0, 1, 1, 1, 1, 1, 1
5.413932458333334, 1, 0, 0, 1, 1, 1, 1, 1
5.413937125000000, 1, 1, 0, 1, 1, 1, 1, 1
5.413941708333334, 1, 1, 1, 1, 1, 1, 1, 1
5.413947541666667, 1, 0, 1, 1, 1, 1, 1, 1
5.413952583333334, 1, 0, 0, 1, 1, 1, 1, 1
5.413953500000001, 1, 1, 0, 1, 1, 1, 1, 1
5.413959291666667, 1, 1, 1, 1, 1, 1, 1, 1
5.413964208333334, 1, 1, 0, 1, 1, 1, 1, 1
5.413964541666667, 1, 0, 0, 1, 1, 1, 1, 1
5.413969375000001, 1, 0, 1, 1, 1, 1, 1, 1
5.413974208333333, 1, 0, 0, 1, 1, 1, 1, 1
5.413974625000001, 1, 1, 0, 1, 1, 1, 1, 1
5.413979333333334, 1, 1, 1, 1, 1, 1, 1, 1
5.413984250000000, 1, 1, 0, 1, 1, 1, 1, 1
5.413989333333333, 1, 1, 1, 1, 1, 1, 1, 1
5.413994250000000, 1, 1, 0, 1, 1, 1, 1, 1
5.413994541666667, 1, 0, 0, 1, 1, 1, 1, 1
5.413999416666667, 1, 0, 1, 1, 1, 1, 1, 1
5.414004250000001, 1, 0, 0, 1, 1, 1, 1, 1
5.414004666666667, 1, 1, 0, 1, 1, 1, 1, 1
5.414009333333333, 1, 1, 1, 1, 1, 1, 1, 1
5.414014250000000, 1, 1, 0, 1, 1, 1, 1, 1
5.414014583333334, 1, 0, 0, 1, 1, 1, 1, 1
5.414019416666667, 1, 0, 1, 1, 1, 1, 1, 1
5.414024250000001, 1, 0, 0, 1, 1, 1, 1, 1
5.414024666666667, 1, 1, 0, 1, 1, 1, 1, 1
5.414029375000000, 1, 1, 1, 1, 1, 1, 1, 1
5.414034250000000, 1, 1, 0, 1, 1, 1, 1, 1
5.414036750000000, 1, 0, 0, 1, 1, 1, 1, 1
5.414039375000001, 1, 0, 1, 1, 1, 1, 1, 1
5.414044291666667, 1, 0, 0, 1, 1, 1, 1, 1
5.414047083333334, 1, 1, 0, 1, 1, 1, 1, 1
5.414053416666667, 1, 1, 1, 1, 1, 1, 1, 1
5.414058333333334, 1, 1, 0, 1, 1, 1, 1, 1
5.414063458333334, 1, 1, 1, 1, 1, 1, 1, 1
5.414068333333334, 1, 1, 0, 1, 1, 1, 1, 1
5.414073416666667, 1, 1, 1, 1, 1, 1, 1, 1
5.414078375000000, 1, 1, 0, 1, 1, 1, 1, 1
5.414083458333334, 1, 1, 1, 1, 1, 1, 1, 1
5.414088375000000, 1, 1, 0, 1, 1, 1, 1, 1
5.414093458333333, 1, 1, 1, 1, 1, 1, 1, 1
5.414098375000000, 1, 1, 0, 1, 1, 1, 1, 1
5.414103458333334, 1, 1, 1, 1, 1, 1, 1, 1
5.414108375000001, 1, 1, 0, 1, 1, 1, 1, 1
5.414113458333333, 1, 1, 1, 1, 1, 1, 1, 1
5.414118375000000, 1, 1, 0, 1, 1, 1, 1, 1
5.414123458333334, 1, 1, 1, 1, 1, 1, 1, 1
5.414128375000001, 1, 1, 0, 1, 1, 1, 1, 1
5.414128708333334, 1, 0, 0, 1, 1, 1, 1, 1
5.414133541666667, 1, 0, 1, 1, 1, 1, 1, 1
5.414138416666667, 1, 0, 0, 1, 1, 1, 1, 1
5.414138791666667, 1, 1, 0, 1, 1, 1, 1, 1
5.414148666666667, 1, 1, 1, 1, 1, 1, 1, 1
5.414153583333333, 1, 1, 0, 1, 1, 1, 1, 1
5.414158708333334, 1, 1, 1, 1, 1, 1, 1, 1
5.414163625000000, 1, 1, 0, 1, 1, 1, 1, 1
5.414168708333333, 1, 1, 1, 1, 1, 1, 1, 1
5.414173625000000, 1, 1, 0, 1, 1, 1, 1, 1
5.414178708333334, 1, 1, 1, 1, 1, 1, 1, 1
5.414183625000001, 1, 1, 0, 1, 1, 1, 1, 1
5.414188708333334, 1, 1, 1, 1, 1, 1, 1, 1
5.414193625000000, 1, 1, 0, 1, 1, 1, 1, 1
5.414198708333334, 1, 1, 1, 1, 1, 1, 1, 1
5.414203625000001, 1, 1, 0, 1, 1, 1, 1, 1
5.414208708333334, 1, 1, 1, 1, 1, 1, 1, 1
5.414213625000000, 1, 1, 0, 1, 1, 1, 1, 1
5.414218750000001, 1, 1, 1, 1, 1, 1, 1, 1
5.414223625000000, 1, 1, 0, 1, 1, 1, 1, 1
5.414223958333333, 1, 0, 0, 1, 1, 1, 1, 1
5.414228791666667, 1, 0, 1, 1, 1, 1, 1, 1
5.414233666666667, 1, 0, 0, 1, 1, 1, 1, 1
5.414234041666667, 1, 1, 0, 1, 1, 1, 1, 1
5.414244000000000, 1, 1, 1, 1, 1, 1, 1, 1
5.414248916666667, 1, 1, 0, 1, 1, 1, 1, 1
5.414254000000001, 1, 1, 1, 1, 1, 1, 1, 1
5.414258916666667, 1, 1, 0, 1, 1, 1, 1, 1
5.414260208333333, 1, 0, 0, 1, 1, 1, 1, 1
5.414264041666667, 1, 0, 1, 1, 1, 1, 1, 1
5.414268916666667, 1, 0, 0, 1, 1, 1, 1, 1
5.414270583333334, 1, 1, 0, 1, 1, 1, 1, 1
5.414274000000001, 1, 1, 1, 1, 1, 1, 1, 1
5.414278916666667, 1, 1, 0, 1, 1, 1, 1, 1
5.414280083333334, 1, 0, 0, 1, 1, 1, 1, 1
5.414284041666667, 1, 0, 1, 1, 1, 1, 1, 1
5.414288958333334, 1, 0, 0, 1, 1, 1, 1, 1
5.414290416666667, 1, 1, 0, 1, 1, 1, 1, 1
5.414294000000000, 1, 1, 1, 1, 1, 1, 1, 1
5.414298958333334, 1, 1, 0, 1, 1, 1, 1, 1
5.414304041666667, 1, 1, 1, 1, 1, 1, 1, 1
5.414308958333334, 1, 1, 0, 1, 1, 1, 1, 1
5.414310125000000, 1, 0, 0, 1, 1, 1, 1, 1
5.414314083333334, 1, 0, 1, 1, 1, 1, 1, 1
5.414318958333333, 1, 0, 0, 1, 1, 1, 1, 1
5.414320458333334, 1, 1, 0, 1, 1, 1, 1, 1
5.414324041666667, 1, 1, 1, 1, 1, 1, 1, 1
5.414328958333334, 1, 1, 0, 1, 1, 1, 1, 1
5.414334833333334, 1, 0, 0, 1, 1, 1, 1, 1
5.414339625000000, 1, 0, 1, 1, 1, 1, 1, 1
5.414345416666667, 1, 1, 1, 1, 1, 1, 1, 1
5.414745666666667, 1, 0, 1, 1, 1, 1, 1, 1
5.414750750000001, 1, 0, 0, 1, 1, 1, 1, 1
5.414755541666667, 1, 1, 0, 1, 1, 1, 1, 1
5.414760083333333, 1, 1, 1, 1, 1, 1, 1, 1
5.414765000000000, 1, 1, 0, 1, 1, 1, 1, 1
5.414765291666667, 1, 0, 0, 1, 1, 1, 1, 1
5.414770166666667, 1, 0, 1, 1, 1, 1, 1, 1
5.414775000000001, 1, 0, 0, 1, 1, 1, 1, 1
5.414775416666667, 1, 1, 0, 1, 1, 1, 1, 1
5.414780083333333, 1, 1, 1, 1, 1, 1, 1, 1
5.414785000000000, 1, 1, 0, 1, 1, 1, 1, 1
5.414790125000001, 1, 1, 1, 1, 1, 1, 1, 1
5.414795000000001, 1, 1, 0, 1, 1, 1, 1, 1
5.414795333333334, 1, 0, 0, 1, 1, 1, 1, 1
5.414800166666667, 1, 0, 1, 1, 1, 1, 1, 1
5.414805000000000, 1, 0, 0, 1, 1, 1, 1, 1
5.414805416666667, 1, 1, 0, 1, 1, 1, 1, 1
5.414810125000001, 1, 1, 1, 1, 1, 1, 1, 1
5.414815041666667, 1, 1, 0, 1, 1, 1, 1, 1
5.414815333333333, 1, 0, 0, 1, 1, 1, 1, 1
5.414820208333333, 1, 0, 1, 1, 1, 1, 1, 1
5.414825041666667, 1, 0, 0, 1, 1, 1, 1, 1
5.414830208333334, 1, 0, 1, 1, 1, 1, 1, 1
5.414835041666667, 1, 0, 0, 1, 1, 1, 1, 1
5.414835458333334, 1, 1, 0, 1, 1, 1, 1, 1
5.414837958333334, 1, 0, 0, 1, 1, 1, 1, 1
5.414840166666667, 1, 0, 1, 1, 1, 1, 1, 1
5.414845041666667, 1, 0, 0, 1, 1, 1, 1, 1
5.414846750000001, 1, 1, 0, 1, 1, 1, 1, 1
5.414850500000000, 1, 0, 0, 1, 1, 1, 1, 1
5.414855416666667, 1, 0, 1, 1, 1, 1, 1, 1
5.414860250000000, 1, 0, 0, 1, 1, 1, 1, 1
5.414865416666667, 1, 0, 1, 1, 1, 1, 1, 1
5.414870250000000, 1, 0, 0, 1, 1, 1, 1, 1
5.414875416666667, 1, 0, 1, 1, 1, 1, 1, 1
5.414880250000000, 1, 0, 0, 1, 1, 1, 1, 1
5.414885416666667, 1, 0, 1, 1, 1, 1, 1, 1
5.414890250000000, 1, 0, 0, 1, 1, 1, 1, 1
5.414895416666667, 1, 0, 1, 1, 1, 1, 1, 1
5.414900250000001, 1, 0, 0, 1, 1, 1, 1, 1
5.414900666666667, 1, 1, 0, 1, 1, 1, 1, 1
5.414905375000000, 1, 1, 1, 1, 1, 1, 1, 1
5.414910291666667, 1, 1, 0, 1, 1, 1, 1, 1
5.414915375000001, 1, 1, 1, 1, 1, 1, 1, 1
5.414920291666667, 1, 1, 0, 1, 1, 1, 1, 1
5.414925375000000, 1, 1, 1, 1, 1, 1, 1, 1
5.414930291666667, 1, 1, 0, 1, 1, 1, 1, 1
5.414932583333334, 1, 0, 0, 1, 1, 1, 1, 1
5.414935416666667, 1, 0, 1, 1, 1, 1, 1, 1
5.414940291666667, 1, 0, 0, 1, 1, 1, 1, 1
5.414945041666667, 1, 1, 0, 1, 1, 1, 1, 1
5.414949625000000, 1, 1, 1, 1, 1, 1, 1, 1
5.414955458333334, 1, 0, 1, 1, 1, 1, 1, 1
5.414960500000000, 1, 0, 0, 1, 1, 1, 1, 1
5.414965208333333, 1, 1, 0, 1, 1, 1, 1, 1
5.414971041666667, 1, 1, 1, 1, 1, 1, 1, 1
5.414975958333334, 1, 1, 0, 1, 1, 1, 1, 1
5.414976250000000, 1, 0, 0, 1, 1, 1, 1, 1
5.414981125000001, 1, 0, 1, 1, 1, 1, 1, 1
5.414985958333333, 1, 0, 0, 1, 1, 1, 1, 1
5.414986375000001, 1, 1, 0, 1, 1, 1, 1, 1
5.414991041666667, 1, 1, 1, 1, 1, 1, 1, 1
5.414995958333334, 1, 1, 0, 1, 1, 1, 1, 1
5.415001041666667, 1, 1, 1, 1, 1, 1, 1, 1
5.415005958333333, 1, 1, 0, 1, 1, 1, 1, 1
5.415006291666667, 1, 0, 0, 1, 1, 1, 1, 1
5.415011125000000, 1, 0, 1, 1, 1, 1, 1, 1
5.415015958333334, 1, 0, 0, 1, 1, 1, 1, 1
5.415016375000000, 1, 1, 0, 1, 1, 1, 1, 1
5.415021083333333, 1, 1, 1, 1, 1, 1, 1, 1
5.415026000000000, 1, 1, 0, 1, 1, 1, 1, 1
5.415026291666667, 1, 0, 0, 1, 1, 1, 1, 1
5.415031125000001, 1, 0, 1, 1, 1, 1, 1, 1
5.415036000000001, 1, 0, 0, 1, 1, 1, 1, 1
5.415036416666667, 1, 1, 0, 1, 1, 1, 1, 1
5.415041083333334, 1, 1, 1, 1, 1, 1, 1, 1
5.415046000000000, 1, 1, 0, 1, 1, 1, 1, 1
5.415048625000001, 1, 0, 0, 1, 1, 1, 1, 1
5.415051125000001, 1, 0, 1, 1, 1, 1, 1, 1
5.415056000000001, 1, 0, 0, 1, 1, 1, 1, 1
5.415065250000000, 1, 0, 1, 1, 1, 1, 1, 1
5.415070125000001, 1, 0, 0, 1, 1, 1, 1, 1
5.415075250000000, 1, 0, 1, 1, 1, 1, 1, 1
5.415080125000000, 1, 0, 0, 1, 1, 1, 1, 1
5.415085250000001, 1, 0, 1, 1, 1, 1, 1, 1
5.415090166666667, 1, 0, 0, 1, 1, 1, 1, 1
5.415095250000000, 1, 0, 1, 1, 1, 1, 1, 1
5.415100166666667, 1, 0, 0, 1, 1, 1, 1, 1
5.415105291666667, 1, 0, 1, 1, 1, 1, 1, 1
5.415110166666667, 1, 0, 0, 1, 1, 1, 1, 1
5.415111916666667, 1, 1, 0, 1, 1, 1, 1, 1
5.415115250000000, 1, 1, 1, 1, 1, 1, 1, 1
5.415120166666667, 1, 1, 0, 1, 1, 1, 1, 1
5.415125250000000, 1, 1, 1, 1, 1, 1, 1, 1
5.415130166666667, 1, 1, 0, 1, 1, 1, 1, 1
5.415131583333333, 1, 0, 0, 1, 1, 1, 1, 1
5.415135291666667, 1, 0, 1, 1, 1, 1, 1, 1
5.415140166666667, 1, 0, 0, 1, 1, 1, 1, 1
5.415145333333333, 1, 0, 1, 1, 1, 1, 1, 1
5.415150166666667, 1, 0, 0, 1, 1, 1, 1, 1
5.415150583333333, 1, 1, 0, 1, 1, 1, 1, 1
5.415152958333334, 1, 0, 0, 1, 1, 1, 1, 1
5.415160583333334, 1, 0, 1, 1, 1, 1, 1, 1
5.415165458333334, 1, 0, 0, 1, 1, 1, 1, 1
5.415170583333333, 1, 0, 1, 1, 1, 1, 1, 1
5.415175458333334, 1, 0, 0, 1, 1, 1, 1, 1
5.415177041666667, 1, 1, 0, 1, 1, 1, 1, 1
5.415180541666667, 1, 1, 1, 1, 1, 1, 1, 1
5.415185458333334, 1, 1, 0, 1, 1, 1, 1, 1
5.415190541666667, 1, 1, 1, 1, 1, 1, 1, 1
5.415195458333334, 1, 1, 0, 1, 1, 1, 1, 1
5.415200541666667, 1, 1, 1, 1, 1, 1, 1, 1
5.415205458333333, 1, 1, 0, 1, 1, 1, 1, 1
5.415206916666667, 1, 0, 0, 1, 1, 1, 1, 1
5.415210583333334, 1, 0, 1, 1, 1, 1, 1, 1
5.415215500000000, 1, 0, 0, 1, 1, 1, 1, 1
5.415217250000000, 1, 1, 0, 1, 1, 1, 1, 1
5.415220541666667, 1, 1, 1, 1, 1, 1, 1, 1
5.415225500000000, 1, 1, 0, 1, 1, 1, 1, 1
5.415226750000000, 1, 0, 0, 1, 1, 1, 1, 1
5.415230625000000, 1, 0, 1, 1, 1, 1, 1, 1
5.415235500000001, 1, 0, 0, 1, 1, 1, 1, 1
5.415240666666667, 1, 0, 1, 1, 1, 1, 1, 1
5.415245500000000, 1, 0, 0, 1, 1, 1, 1, 1
5.415245916666667, 1, 1, 0, 1, 1, 1, 1, 1
5.415255916666667, 1, 1, 1, 1, 1, 1, 1, 1
5.415260833333334, 1, 1, 0, 1, 1, 1, 1, 1
5.415265916666667, 1, 1, 1, 1, 1, 1, 1, 1
5.415270833333333, 1, 1, 0, 1, 1, 1, 1, 1
5.415272041666667, 1, 0, 0, 1, 1, 1, 1, 1
5.415275958333334, 1, 0, 1, 1, 1, 1, 1, 1
5.415280833333334, 1, 0, 0, 1, 1, 1, 1, 1
5.415282416666667, 1, 1, 0, 1, 1, 1, 1, 1
5.415285916666667, 1, 1, 1, 1, 1, 1, 1, 1
5.415290833333334, 1, 1, 0, 1, 1, 1, 1, 1
5.415295916666667, 1, 1, 1, 1, 1, 1, 1, 1
5.415300833333333, 1, 1, 0, 1, 1, 1, 1, 1
5.415305958333334, 1, 1, 1, 1, 1, 1, 1, 1
5.415310875000000, 1, 1, 0, 1, 1, 1, 1, 1
5.415315958333333, 1, 1, 1, 1, 1, 1, 1, 1
5.415320875000000, 1, 1, 0, 1, 1, 1, 1, 1
5.415322458333334, 1, 0, 0, 1, 1, 1, 1, 1
5.415326000000000, 1, 0, 1, 1, 1, 1, 1, 1
5.415330875000000, 1, 0, 0, 1, 1, 1, 1, 1
5.415332291666667, 1, 1, 0, 1, 1, 1, 1, 1
5.415335958333333, 1, 1, 1, 1, 1, 1, 1, 1
5.415340875000000, 1, 1, 0, 1, 1, 1, 1, 1
5.415346833333333, 1, 0, 0, 1, 1, 1, 1, 1
5.415351583333334, 1, 0, 1, 1, 1, 1, 1, 1
5.415357375000000, 1, 1, 1, 1, 1, 1, 1, 1
5.415422416666667, 1, 0, 1, 1, 1, 1, 1, 1
5.415427500000001, 1, 0, 0, 1, 1, 1, 1, 1
5.415432291666667, 1, 1, 0, 1, 1, 1, 1, 1
5.415436833333334, 1, 1, 1, 1, 1, 1, 1, 1
5.415441750000000, 1, 1, 0, 1, 1, 1, 1, 1
5.415442041666667, 1, 0, 0, 1, 1, 1, 1, 1
5.415446916666667, 1, 0, 1, 1, 1, 1, 1, 1
5.415451750000000, 1, 0, 0, 1, 1, 1, 1, 1
5.415452166666667, 1, 1, 0, 1, 1, 1, 1, 1
5.415456833333334, 1, 1, 1, 1, 1, 1, 1, 1
5.415461750000000, 1, 1, 0, 1, 1, 1, 1, 1
5.415466833333333, 1, 1, 1, 1, 1, 1, 1, 1
5.415471750000000, 1, 1, 0, 1, 1, 1, 1, 1
5.415472083333333, 1, 0, 0, 1, 1, 1, 1, 1
5.415476916666667, 1, 0, 1, 1, 1, 1, 1, 1
5.415481791666667, 1, 0, 0, 1, 1, 1, 1, 1
5.415482208333334, 1, 1, 0, 1, 1, 1, 1, 1
5.415486875000000, 1, 1, 1, 1, 1, 1, 1, 1
5.415491791666667, 1, 1, 0, 1, 1, 1, 1, 1
5.415492083333334, 1, 0, 0, 1, 1, 1, 1, 1
5.415496958333334, 1, 0, 1, 1, 1, 1, 1, 1
5.415501791666667, 1, 0, 0, 1, 1, 1, 1, 1
5.415506958333333, 1, 0, 1, 1, 1, 1, 1, 1
5.415511791666667, 1, 0, 0, 1, 1, 1, 1, 1
5.415512208333333, 1, 1, 0, 1, 1, 1, 1, 1
5.415514833333334, 1, 0, 0, 1, 1, 1, 1, 1
5.415516916666667, 1, 0, 1, 1, 1, 1, 1, 1
5.415521791666667, 1, 0, 0, 1, 1, 1, 1, 1
5.415523166666667, 1, 1, 0, 1, 1, 1, 1, 1
5.415527333333333, 1, 0, 0, 1, 1, 1, 1, 1
5.415532208333333, 1, 0, 1, 1, 1, 1, 1, 1
5.415537041666667, 1, 0, 0, 1, 1, 1, 1, 1
5.415542208333334, 1, 0, 1, 1, 1, 1, 1, 1
5.415547083333333, 1, 0, 0, 1, 1, 1, 1, 1
5.415552250000000, 1, 0, 1, 1, 1, 1, 1, 1
5.415557083333334, 1, 0, 0, 1, 1, 1, 1, 1
5.415562250000001, 1, 0, 1, 1, 1, 1, 1, 1
5.415567083333333, 1, 0, 0, 1, 1, 1, 1, 1
5.415572250000000, 1, 0, 1, 1, 1, 1, 1, 1
5.415577083333334, 1, 0, 0, 1, 1, 1, 1, 1
5.415577500000000, 1, 1, 0, 1, 1, 1, 1, 1
5.415582166666667, 1, 1, 1, 1, 1, 1, 1, 1
5.415587083333333, 1, 1, 0, 1, 1, 1, 1, 1
5.415592208333334, 1, 1, 1, 1, 1, 1, 1, 1
5.415597125000001, 1, 1, 0, 1, 1, 1, 1, 1
5.415597416666667, 1, 0, 0, 1, 1, 1, 1, 1
5.415602250000000, 1, 0, 1, 1, 1, 1, 1, 1
5.415607125000000, 1, 0, 0, 1, 1, 1, 1, 1
5.415607541666667, 1, 1, 0, 1, 1, 1, 1, 1
5.415609500000000, 1, 0, 0, 1, 1, 1, 1, 1
5.415612208333334, 1, 0, 1, 1, 1, 1, 1, 1
5.415617125000001, 1, 0, 0, 1, 1, 1, 1, 1
5.415621833333334, 1, 1, 0, 1, 1, 1, 1, 1
5.415626458333334, 1, 1, 1, 1, 1, 1, 1, 1
5.415632250000001, 1, 0, 1, 1, 1, 1, 1, 1
5.415637333333334, 1, 0, 0, 1, 1, 1, 1, 1
5.415642791666667, 1, 1, 0, 1, 1, 1, 1, 1
5.415648583333334, 1, 1, 1, 1, 1, 1, 1, 1
5.415653500000000, 1, 1, 0, 1, 1, 1, 1, 1
5.415653833333334, 1, 0, 0, 1, 1, 1, 1, 1
5.415658666666667, 1, 0, 1, 1, 1, 1, 1, 1
5.415663500000000, 1, 0, 0, 1, 1, 1, 1, 1
5.415663916666667, 1, 1, 0, 1, 1, 1, 1, 1
5.415668625000000, 1, 1, 1, 1, 1, 1, 1, 1
5.415673541666667, 1, 1, 0, 1, 1, 1, 1, 1
5.415678625000000, 1, 1, 1, 1, 1, 1, 1, 1
5.415683541666667, 1, 1, 0, 1, 1, 1, 1, 1
5.415683833333333, 1, 0, 0, 1, 1, 1, 1, 1
5.415688708333334, 1, 0, 1, 1, 1, 1, 1, 1
5.415693541666667, 1, 0, 0, 1, 1, 1, 1, 1
5.415693958333334, 1, 1, 0, 1, 1, 1, 1, 1
5.415698625000000, 1, 1, 1, 1, 1, 1, 1, 1
5.415703541666667, 1, 1, 0, 1, 1, 1, 1, 1
5.415703875000000, 1, 0, 0, 1, 1, 1, 1, 1
5.415708708333334, 1, 0, 1, 1, 1, 1, 1, 1
5.415713541666667, 1, 0, 0, 1, 1, 1, 1, 1
5.415713958333334, 1, 1, 0, 1, 1, 1, 1, 1
5.415718666666667, 1, 1, 1, 1, 1, 1, 1, 1
5.415723583333333, 1, 1, 0, 1, 1, 1, 1, 1
5.415726041666667, 1, 0, 0, 1, 1, 1, 1, 1
5.415728666666667, 1, 0, 1, 1, 1, 1, 1, 1
5.415733583333334, 1, 0, 0, 1, 1, 1, 1, 1
5.415736375000001, 1, 1, 0, 1, 1, 1, 1, 1
5.415742791666667, 1, 1, 1, 1, 1, 1, 1, 1
5.415747708333334, 1, 1, 0, 1, 1, 1, 1, 1
5.415752791666667, 1, 1, 1, 1, 1, 1, 1, 1
5.415757708333333, 1, 1, 0, 1, 1, 1, 1, 1
5.415759125000000, 1, 0, 0, 1, 1, 1, 1, 1
5.415762833333334, 1, 0, 1, 1, 1, 1, 1, 1
5.415767708333334, 1, 0, 0, 1, 1, 1, 1, 1
5.415772833333333, 1, 0, 1, 1, 1, 1, 1, 1
5.415777708333334, 1, 0, 0, 1, 1, 1, 1, 1
5.415779125000000, 1, 1, 0, 1, 1, 1, 1, 1
5.415782791666667, 1, 1, 1, 1, 1, 1, 1, 1
5.415787708333333, 1, 1, 0, 1, 1, 1, 1, 1
5.415789166666667, 1, 0, 0, 1, 1, 1, 1, 1
5.415792833333334, 1, 0, 1, 1, 1, 1, 1, 1
5.415797750000000, 1, 0, 0, 1, 1, 1, 1, 1
5.415799500000000, 1, 1, 0, 1, 1, 1, 1, 1
5.415802833333333, 1, 1, 1, 1, 1, 1, 1, 1
5.415807750000000, 1, 1, 0, 1, 1, 1, 1, 1
5.415809000000000, 1, 0, 0, 1, 1, 1, 1, 1
5.415812875000000, 1, 0, 1, 1, 1, 1, 1, 1
5.415817750000000, 1, 0, 0, 1, 1, 1, 1, 1
5.415822916666667, 1, 0, 1, 1, 1, 1, 1, 1
5.415827750000000, 1, 0, 0, 1, 1, 1, 1, 1
5.415828166666667, 1, 1, 0, 1, 1, 1, 1, 1
5.415830875000000, 1, 0, 0, 1, 1, 1, 1, 1
5.415838083333334, 1, 0, 1, 1, 1, 1, 1, 1
5.415842958333334, 1, 0, 0, 1, 1, 1, 1, 1
5.415848083333334, 1, 0, 1, 1, 1, 1, 1, 1
5.415852958333334, 1, 0, 0, 1, 1, 1, 1, 1
5.415854458333333, 1, 1, 0, 1, 1, 1, 1, 1
5.415858041666667, 1, 1, 1, 1, 1, 1, 1, 1
5.415862958333333, 1, 1, 0, 1, 1, 1, 1, 1
5.415868041666667, 1, 1, 1, 1, 1, 1, 1, 1
5.415872958333334, 1, 1, 0, 1, 1, 1, 1, 1
5.415878041666667, 1, 1, 1, 1, 1, 1, 1, 1
5.415882958333333, 1, 1, 0, 1, 1, 1, 1, 1
5.415884333333334, 1, 0, 0, 1, 1, 1, 1, 1
5.415888083333334, 1, 0, 1, 1, 1, 1, 1, 1
5.415893000000001, 1, 0, 0, 1, 1, 1, 1, 1
5.415898125000000, 1, 0, 1, 1, 1, 1, 1, 1
5.415903000000000, 1, 0, 0, 1, 1, 1, 1, 1
5.415904333333334, 1, 1, 0, 1, 1, 1, 1, 1
5.415908083333334, 1, 1, 1, 1, 1, 1, 1, 1
5.415913000000001, 1, 1, 0, 1, 1, 1, 1, 1
5.415913291666667, 1, 0, 0, 1, 1, 1, 1, 1
5.415918166666667, 1, 0, 1, 1, 1, 1, 1, 1
5.415923000000000, 1, 0, 0, 1, 1, 1, 1, 1
5.415923416666667, 1, 1, 0, 1, 1, 1, 1, 1
5.415933416666667, 1, 1, 1, 1, 1, 1, 1, 1
5.415938333333334, 1, 1, 0, 1, 1, 1, 1, 1
5.415943416666667, 1, 1, 1, 1, 1, 1, 1, 1
5.415948333333334, 1, 1, 0, 1, 1, 1, 1, 1
5.415949500000000, 1, 0, 0, 1, 1, 1, 1, 1
5.415953458333334, 1, 0, 1, 1, 1, 1, 1, 1
5.415958333333334, 1, 0, 0, 1, 1, 1, 1, 1
5.415959833333334, 1, 1, 0, 1, 1, 1, 1, 1
5.415963416666667, 1, 1, 1, 1, 1, 1, 1, 1
5.415968333333334, 1, 1, 0, 1, 1, 1, 1, 1
5.415969833333333, 1, 0, 0, 1, 1, 1, 1, 1
5.415973458333334, 1, 0, 1, 1, 1, 1, 1, 1
5.415978375000000, 1, 0, 0, 1, 1, 1, 1, 1
5.415983458333334, 1, 0, 1, 1, 1, 1, 1, 1
5.415988375000000, 1, 0, 0, 1, 1, 1, 1, 1
5.415993458333333, 1, 0, 1, 1, 1, 1, 1, 1
5.415998375000000, 1, 0, 0, 1, 1, 1, 1, 1
5.416003500000000, 1, 0, 1, 1, 1, 1, 1, 1
5.416008375000001, 1, 0, 0, 1, 1, 1, 1, 1
5.416009708333334, 1, 1, 0, 1, 1, 1, 1, 1
5.416013458333333, 1, 1, 1, 1, 1, 1, 1, 1
5.416018375000000, 1, 1, 0, 1, 1, 1, 1, 1
5.416024333333334, 1, 0, 0, 1, 1, 1, 1, 1
5.416029125000001, 1, 0, 1, 1, 1, 1, 1, 1
5.416034875000000, 1, 1, 1, 1, 1, 1, 1, 1
